# 注射泵 RS485 (Modbus RTU) 通信协议总结

## 概述
- 协议类型：Modbus RTU（串口 RS485）
- 默认通信参数：地址 0x01，波特率 9600，数据位 8，停止位 1，无校验
- 广播地址：0xFE（对所有设备下发广播指令）
- 机械参数：默认驱动器最大工作电流 1.4A；推板移动 1 mm = 6400 steps（步距 0.15625 µm/step）

## 重要说明
- 修改通信参数（地址/波特/校验）后，需向保存寄存器写入保存命令并重启使其生效。
- 设备支持 PLC/上位机/单片机等控制，支持启动、暂停、继续、停止、正反转等操作。

## 通信配置（寄存器）
- `0x0F` (15)：本机地址，取值 1~30，默认 1，支持读写并可掉电保存
- `0x10` (16)：波特率设置，取值映射：0=1200，1=2400，2=4800，3=9600，4=19200，5=38400，6=57600，7=115200
- `0x12` (18)：奇偶校验位，0=无（默认），1=奇，2=偶
- `0x20` (32)：参数保存，写 `1` 保存到闪存，写 `0xAA` 恢复出厂并重启

## 功能/状态寄存器（主要）
- `0x02` (2)：绝对位置高 16 位（支持读写：03/06/10）
- `0x03` (3)：绝对位置低 16 位
- `0x05` (5)：增量位置高 16 位（用于增量运动，支持正负）
- `0x06` (6)：增量位置低 16 位
- `0x19` (25)：当前位置高 16 位（只读，用于读取当前位置）
- `0x1A` (26)：当前位置低 16 位
- `0x14` (20)：速度（steps/min），取值 1~65535，支持读写（03/06/10）
- `0x15` (21)：速度（steps/s），取值 1~65535，支持读写
- `0x16` (22)：加减速等级，取值 1~100（默认 80），值越大加减速越快，支持读写
- `0x13` (19)：写入为控制命令：4=开始，3=停止，2=暂停，1=继续（支持写入03/06）；读出为电机工作状态：0=空闲，1=运行，2=暂停（支持读03）
- `0x35` (53)：限位开关1 状态，0=断开，1=导通（只读03）
- `0x36` (54)：限位开关2 状态（只读03）

## 常用 Modbus 帧示例（来自设备说明）
注：下面的示例为完整 Modbus RTU 帧（含 CRC），每一行为发送或接收的十六进制字节流。

1. 设置速度为 1000 µm/min（即 6400 steps/min）
   - 发送：`01 06 00 14 19 00 C2 5E`
   - 接收：`01 06 00 14 19 00 C2 5E`

2. 设置运行距离为 1000 µm（增量运动，6400 steps）
   - 发送：`01 10 00 05 00 02 04 00 00 19 00 38 00`
   - 接收：`01 10 00 05 00 02 51 C9`

3. 设置加减速等级为 80
   - 发送：`01 06 00 16 00 50 68 32`
   - 接收：`01 06 00 16 00 50 68 32`

4. 开始运行
   - 发送：`01 06 00 13 00 04 79 CC`
   - 接收：`01 06 00 13 00 04 79 CC`

5. 暂停运行
   - 发送：`01 06 00 13 00 02 F9 CE`
   - 接收：`01 06 00 13 00 02 F9 CE`

6. 继续运行
   - 发送：`01 06 00 13 00 01 B9 CF`
   - 接收：`01 06 00 13 00 01 B9 CF`

7. 停止运行
   - 发送：`01 06 00 13 00 03 38 0E`
   - 接收：`01 06 00 13 00 03 38 0E`

8. 读取当前位置（steps）
   - 发送：`01 03 00 19 00 02 15 CC`
   - 接收：`01 03 04 00 00 19 00 F1 A3`（返回当前位置 6400 steps，即 1 mm）

9. 将当前位置设置为 0
   - 发送：`01 10 00 19 00 02 04 00 00 00 00 32 C9`
   - 接收：`01 10 00 19 00 02 90 0F`

10. 读取电机运行状态
   - 发送：`01 03 00 13 00 01 75 CF`
   - 接收：`01 03 02 00 00 B8 44`（空闲）

11. 读取开关1 状态
   - 发送：`01 03 00 35 00 01 94 04`
   - 接收：`01 03 02 00 00 B8 44`（断开）

12. 读取开关2 状态
   - 发送：`01 03 00 36 00 01 64 04`
   - 接收：`01 03 02 00 00 B8 44`（断开）

## 注意事项与建议
- 写多寄存器时设备最多支持写入 2 个寄存器。
- 红色标记位在设备文档中固定为 0（寄存器地址仅使用低 8 位）。
- 在批量部署时可使用广播地址 0xFE 同时下发运行指令。
- 修改通信配置后务必执行寄存器保存并重启设备以使配置生效。

---
汇总自：3452432099注射泵485通讯功能简易说明(无屏工程版).pdf
# 3452432099 注射泵 — RS485(Modbus RTU) 通讯协议总结

## 概述
- 协议类型：Modbus RTU（标准）
- 默认通讯参数：地址 0x01；波特率 9600；数据位 8；停止位 1；无校验
- 广播地址：0xFE（可用于同时向多个设备下发指令）
- 注：设备只支持最多 2 个寄存器的写入，多寄存器写入即 2 个寄存器。

## 接线与输入
- 两个光耦隔离的数字输入口，输入端短接到 0V 即导通。
- 若使用传感器（光电/霍尔/金属感应等），请选择 NPN 输出结构的器件。

## 重要寄存器（寄存器地址为 Modbus 寄存器号，均为 16 位寄存器）

|  HEX |  DEC | 描述                           | 备注                                                         |
| ---: | ---: | ------------------------------ | ------------------------------------------------------------ |
| 0x02 |    2 | 绝对位置 高16位                | 支持读(03)/写(06/10)；范围 -2147483648 ~ +2147483647         |
| 0x03 |    3 | 绝对位置 低16位                | 同上                                                         |
| 0x05 |    5 | 增量位置 高16位                | 支持读/写，正值正向移动，负值反向                            |
| 0x06 |    6 | 增量位置 低16位                | 同上                                                         |
| 0x19 |   25 | 当前位置 高16位                | 用于显示当前位置，支持读                                     |
| 0x1A |   26 | 当前位置 低16位                | 同上                                                         |
| 0x14 |   20 | 速度（steps/min）              | 1~65535；支持读(03)/写(06)。与 `0x15` 互锁，二者不能同时有效 |
| 0x15 |   21 | 速度（steps/s）                | 1~65535；支持读/写                                           |
| 0x16 |   22 | 加减速等级                     | 值 1~100（默认 80）；值越大加减速越快                        |
| 0x13 |   19 | 开始/暂停/继续/停止 指令寄存器 | 写入：4 开始；3 停止；2 暂停；1 继续；支持写(06)             |
| 0x13 |   19 | 电机工作状态（读）             | 0 空闲；1 运行中；2 暂停中；支持读(03)                       |
| 0x35 |   53 | 限位开关1 状态                 | 0 断开；1 导通；支持读(03)                                   |
| 0x36 |   54 | 限位开关2 状态                 | 支持读(03)                                                   |

### 通讯配置寄存器
|  HEX |  DEC | 描述     | 备注                                                                                           |
| ---: | ---: | -------- | ---------------------------------------------------------------------------------------------- |
| 0x0F |   15 | 本机地址 | 1~30（默认 1）；支持读/写；可掉电保存                                                          |
| 0x10 |   16 | 波特率   | 0:1200,1:2400,2:4800,3:9600,4:19200,5:38400,6:57600,7:115200；支持读/写；默认 9600；可掉电保存 |
| 0x12 |   18 | 奇偶校验 | 0:无（默认），1:奇，2:偶；支持读/写；可掉电保存                                                |
| 0x20 |   32 | 参数保存 | 写 1 保存到闪存；写 0xAA 恢复出厂并重启生效（修改后需执行保存并重启）                          |

## 常用操作与 Modbus 报文范例（十六进制）
> 说明：注射泵推板移动 1 mm = 6400 steps（默认驱动器最大电流 1.4A；步进精度 0.15625 µm/step）

1. 设置速度为 1000 µm/min（即 6400 steps/min）
   - 发送：01 06 00 14 19 00 C2 5E
   - 接收：01 06 00 14 19 00 C2 5E

2. 设置增量运动距离为 1000 µm（6400 steps）
   - 发送：01 10 00 05 00 02 04 00 00 19 00 38 00
   - 接收：01 10 00 05 00 02 51 C9

3. 设置加减速等级为 80
   - 发送：01 06 00 16 00 50 68 32
   - 接收：01 06 00 16 00 50 68 32

4. 开始运行
   - 发送：01 06 00 13 00 04 79 CC
   - 接收：01 06 00 13 00 04 79 CC

5. 暂停运行
   - 发送：01 06 00 13 00 02 F9 CE
   - 接收：01 06 00 13 00 02 F9 CE

6. 继续运行
   - 发送：01 06 00 13 00 01 B9 CF
   - 接收：01 06 00 13 00 01 B9 CF

7. 停止运行
   - 发送：01 06 00 13 00 03 38 0E
   - 接收：01 06 00 13 00 03 38 0E

8. 读取当前位置（steps）
   - 发送：01 03 00 19 00 02 15 CC
   - 接收：01 03 04 00 00 19 00 F1 A3 （表示当前位置 6400 steps，即 1 mm）

9. 将当前位置设为 0
   - 发送：01 10 00 19 00 02 04 00 00 00 00 32 C9
   - 接收：01 10 00 19 00 02 90 0F

10. 读取电机运行状态
   - 发送：01 03 00 13 00 01 75 CF
   - 接收：01 03 02 00 00 B8 44（空闲中）

11. 读取开关1 状态
   - 发送：01 03 00 35 00 01 94 04
   - 接收：01 03 02 00 00 B8 44（断开）

12. 读取开关2 状态
   - 发送：01 03 00 36 00 01 64 04
   - 接收：01 03 02 00 00 B8 44（断开）

## 首次通讯/调试步骤
1. 将注射泵接入 RS485 总线，并连接限位开关、脚踏开关（如需要）及电源。
2. 打开上位机或 PLC，设置默认地址 1，波特率 9600，校验位 none，使用 Modbus RTU 进行连接。
3. 建议先读取 `0x19/0x1A` 当前值确认位置，按需设置速度与移动距离，测试开始/暂停/停止功能。

## 备注与注意事项
- 修改通讯相关寄存器后，需向 `0x20` 写入保存命令并重启设备以使设置生效。
- 广播地址 0xFE 可用于同时下发运行命令给多台设备，但读操作不可使用广播地址。
- 寄存器地址与数量仅使用低 8 位（高位固定为 0），设备不支持超过 2 个寄存器的写入。

---

文件由自动提取并整理，若需更详细的寄存器描述、CRC 校验计算示例或 Python/Node 通信示例代码，我可以继续补充。